
T3058 000:304 SEGGER J-Link V4.96d Log File (0003ms, 0271ms total)
T3058 000:304 DLL Compiled: Jan 29 2015 11:45:37 (0003ms, 0271ms total)
T3058 000:304 Logging started @ 2017-04-08 19:47 (0003ms, 0271ms total)
T3058 000:307 JLINK_SetWarnOutHandler(...) (0000ms, 0271ms total)
T3058 000:307 JLINK_OpenEx(...)
Firmware: J-Link ARM V8 compiled Nov 28 2014 13:44:46
Hardware: V8.00
S/N: 286370559
Feature(s): RDI,FlashDL,FlashBP,JFlash  returns O.K. (0270ms, 0541ms total)
T3058 000:577 JLINK_SetErrorOutHandler(...) (0000ms, 0541ms total)
T3058 000:577 JLINK_ExecCommand("ProjectFile = "D:\电力电子培训\隔离反激升压电源\PID驱动\USER\JLinkSettings.ini"", ...)  returns 0x00 (0001ms, 0542ms total)
T3058 000:596 JLINK_ExecCommand("Device = STM32F407ZG", ...)Device "STM32F407ZG" selected.  returns 0x00 (0006ms, 0548ms total)
T3058 000:602 JLINK_ExecCommand("DisableConnectionTimeout", ...)  returns 0x01 (0000ms, 0548ms total)
T3058 000:602 JLINK_GetHardwareVersion()  returns 0x13880 (0000ms, 0548ms total)
T3058 000:602 JLINK_GetDLLVersion()  returns 49604 (0000ms, 0548ms total)
T3058 000:602 JLINK_GetFirmwareString(...) (0000ms, 0548ms total)
T3058 000:615 JLINK_GetDLLVersion()  returns 49604 (0000ms, 0548ms total)
T3058 000:615 JLINK_GetCompileDateTime() (0000ms, 0548ms total)
T3058 000:623 JLINK_GetFirmwareString(...) (0000ms, 0548ms total)
T3058 000:625 JLINK_GetHardwareVersion()  returns 0x13880 (0001ms, 0549ms total)
T3058 000:636 JLINK_TIF_Select(JLINKARM_TIF_SWD)  returns 0x00 (0000ms, 0549ms total)
T3058 000:636 JLINK_SetSpeed(10000) (0001ms, 0550ms total)
T3058 000:637 JLINK_GetId() >0x108 TIF>Found SWD-DP with ID 0x2BA01477 >0x0D TIF> >0x28 TIF> >0x0D TIF> >0x28 TIF> >0x0D TIF> >0x21 TIF> >0x0D TIF> >0x28 TIF> >0x0D TIF> >0x28 TIF> >0x0D TIF> >0x28 TIF> >0x0D TIF> >0x21 TIF> >0x0D TIF> >0x21 TIF> >0x0D TIF> >0x28 TIF> >0x0D TIF> >0x21 TIF> >0x0D TIF> >0x21 TIF> >0x0D TIF> >0x28 TIF> >0x0D TIF> >0x28 TIF> >0x0D TIF> >0x28 TIF> >0x0D TIF> >0x21 TIF> >0x0D TIF> >0x21 TIF> >0x0D TIF> >0x28 TIF> >0x0D TIF> >0x28 TIF> >0x108 TIF>Found SWD-DP with ID 0x2BA01477
 >0x0D TIF> >0x21 TIF> >0x0D TIF> >0x28 TIF> >0x0D TIF> >0x28 TIF> >0x0D TIF> >0x21 TIF> >0x0D TIF> >0x28 TIF> >0x0D TIF> >0x21 TIF> >0x0D TIF> >0x21 TIF> >0x0D TIF> >0x21 TIF> >0x0D TIF> >0x21 TIF> >0x0D TIF> >0x28 TIF> >0x0D TIF> >0x28 TIF> >0x0D TIF> >0x21 TIF> >0x0D TIF> >0x28 TIF> >0x0D TIF> >0x28 TIF> >0x0D TIF> >0x28 TIF> >0x0D TIF> >0x21 TIF> >0x0D TIF> >0x21 TIF> >0x0D TIF> >0x28 TIF> >0x0D TIF> >0x21 TIF> >0x0D TIF> >0x21 TIF>Found Cortex-M4 r0p1, Little endian.
 -- CPU_WriteMem(4 bytes @ 0xE0002000) -- CPU_ReadMem(4 bytes @ 0xE000EDF0) -- CPU_WriteMem(4 bytes @ 0xE000EDF0) -- CPU_ReadMem(4 bytes @ 0xE0002000)FPUnit: 6 code (BP) slots and 2 literal slots -- CPU_ReadMem(4 bytes @ 0xE000EDFC) -- CPU_WriteMem(4 bytes @ 0xE000EDFC) -- CPU_ReadMem(4 bytes @ 0xE0001000) -- CPU_WriteMem(4 bytes @ 0xE0001000) -- CPU_ReadMem(4 bytes @ 0xE000ED88) -- CPU_WriteMem(4 bytes @ 0xE000ED88) -- CPU_ReadMem(4 bytes @ 0xE000ED88) -- CPU_WriteMem(4 bytes @ 0xE000ED88)
 -- CPU_ReadMem(4 bytes @ 0xE00FF010)TPIU fitted. -- CPU_ReadMem(4 bytes @ 0xE00FF014)ETM fitted. -- CPU_ReadMem(4 bytes @ 0xE00FF018) >0x0D TIF> >0x21 TIF>  returns 0x2BA01477 (0036ms, 0586ms total)
T3058 000:673 JLINK_GetDLLVersion()  returns 49604 (0000ms, 0586ms total)
T3058 000:673 JLINK_CORE_GetFound()  returns 0xE0000FF (0000ms, 0586ms total)
T3058 000:673 JLINK_GetDebugInfo(0x100) -- Value=0xE00FF003  returns 0x00 (0000ms, 0586ms total)
T3058 000:675 JLINK_ReadMem (0xE00FF000, 0x0020 Bytes, ...) -- CPU is running -- CPU_ReadMem(32 bytes @ 0xE00FF000) - Data: 03 F0 F0 FF 03 20 F0 FF 03 30 F0 FF 03 10 F0 FF ...  returns 0x00 (0000ms, 0586ms total)
T3058 000:675 JLINK_ReadMem (0xE000EFF0, 0x0010 Bytes, ...) -- CPU is running -- CPU_ReadMem(16 bytes @ 0xE000EFF0) - Data: 0D 00 00 00 E0 00 00 00 05 00 00 00 B1 00 00 00  returns 0x00 (0001ms, 0587ms total)
T3058 000:676 JLINK_ReadMem (0xE000EFD0, 0x0020 Bytes, ...) -- CPU is running -- CPU_ReadMem(32 bytes @ 0xE000EFD0) - Data: 04 00 00 00 00 00 00 00 00 00 00 00 00 00 00 00 ...  returns 0x00 (0000ms, 0587ms total)
T3058 000:676 JLINK_ReadMem (0xE0001FF0, 0x0010 Bytes, ...) -- CPU is running -- CPU_ReadMem(16 bytes @ 0xE0001FF0) - Data: 0D 00 00 00 E0 00 00 00 05 00 00 00 B1 00 00 00  returns 0x00 (0001ms, 0588ms total)
T3058 000:677 JLINK_ReadMem (0xE0001FD0, 0x0020 Bytes, ...) -- CPU is running -- CPU_ReadMem(32 bytes @ 0xE0001FD0) - Data: 04 00 00 00 00 00 00 00 00 00 00 00 00 00 00 00 ...  returns 0x00 (0000ms, 0588ms total)
T3058 000:677 JLINK_ReadMem (0xE0002FF0, 0x0010 Bytes, ...) -- CPU is running -- CPU_ReadMem(16 bytes @ 0xE0002FF0) - Data: 0D 00 00 00 E0 00 00 00 05 00 00 00 B1 00 00 00  returns 0x00 (0001ms, 0589ms total)
T3058 000:678 JLINK_ReadMem (0xE0002FD0, 0x0020 Bytes, ...) -- CPU is running -- CPU_ReadMem(32 bytes @ 0xE0002FD0) - Data: 04 00 00 00 00 00 00 00 00 00 00 00 00 00 00 00 ...  returns 0x00 (0001ms, 0590ms total)
T3058 000:679 JLINK_ReadMem (0xE0000FF0, 0x0010 Bytes, ...) -- CPU is running -- CPU_ReadMem(16 bytes @ 0xE0000FF0) - Data: 0D 00 00 00 E0 00 00 00 05 00 00 00 B1 00 00 00  returns 0x00 (0000ms, 0590ms total)
T3058 000:679 JLINK_ReadMem (0xE0000FD0, 0x0020 Bytes, ...) -- CPU is running -- CPU_ReadMem(32 bytes @ 0xE0000FD0) - Data: 04 00 00 00 00 00 00 00 00 00 00 00 00 00 00 00 ...  returns 0x00 (0001ms, 0591ms total)
T3058 000:680 JLINK_ReadMem (0xE0040FF0, 0x0010 Bytes, ...) -- CPU is running -- CPU_ReadMem(16 bytes @ 0xE0040FF0) - Data: 0D 00 00 00 90 00 00 00 05 00 00 00 B1 00 00 00  returns 0x00 (0000ms, 0591ms total)
T3058 000:680 JLINK_ReadMem (0xE0040FD0, 0x0020 Bytes, ...) -- CPU is running -- CPU_ReadMem(32 bytes @ 0xE0040FD0) - Data: 04 00 00 00 00 00 00 00 00 00 00 00 00 00 00 00 ...  returns 0x00 (0001ms, 0592ms total)
T3058 000:681 JLINK_ReadMem (0xE0041FF0, 0x0010 Bytes, ...) -- CPU is running -- CPU_ReadMem(16 bytes @ 0xE0041FF0) - Data: 0D 00 00 00 90 00 00 00 05 00 00 00 B1 00 00 00  returns 0x00 (0000ms, 0592ms total)
T3058 000:681 JLINK_ReadMem (0xE0041FD0, 0x0020 Bytes, ...) -- CPU is running -- CPU_ReadMem(32 bytes @ 0xE0041FD0) - Data: 04 00 00 00 00 00 00 00 00 00 00 00 00 00 00 00 ...  returns 0x00 (0001ms, 0593ms total)
T3058 000:682 JLINK_ReadMemU32(0xE000EF40, 0x0001 Items, ...) -- CPU is running -- CPU_ReadMem(4 bytes @ 0xE000EF40) - Data: 21 00 11 10  returns 0x01 (0000ms, 0593ms total)
T3058 000:682 JLINK_ReadMemU32(0xE000EF44, 0x0001 Items, ...) -- CPU is running -- CPU_ReadMem(4 bytes @ 0xE000EF44) - Data: 11 00 00 11  returns 0x01 (0000ms, 0593ms total)
T3058 000:683 JLINK_ReadMemU32(0xE000ED00, 0x0001 Items, ...) -- CPU is running -- CPU_ReadMem(4 bytes @ 0xE000ED00) - Data: 41 C2 0F 41  returns 0x01 (0000ms, 0593ms total)
T3058 000:683 JLINK_SetResetType(JLINKARM_RESET_TYPE_NORMAL)  returns JLINKARM_RESET_TYPE_NORMAL (0000ms, 0593ms total)
T3058 000:683 JLINK_Reset() -- CPU is running -- CPU_WriteMem(4 bytes @ 0xE000EDF0) -- CPU is running -- CPU_WriteMem(4 bytes @ 0xE000EDFC) >0x35 TIF> -- CPU is running -- CPU_WriteMem(4 bytes @ 0xE000ED0C) -- CPU is running -- CPU_ReadMem(4 bytes @ 0xE000EDF0) -- CPU is running -- CPU_ReadMem(4 bytes @ 0xE000EDF0) -- CPU is running -- CPU_WriteMem(4 bytes @ 0xE000EDF0) -- CPU is running -- CPU_WriteMem(4 bytes @ 0xE000EDFC) -- CPU is running -- CPU_ReadMem(4 bytes @ 0xE000EDF0)
 -- CPU_WriteMem(4 bytes @ 0xE0002000) -- CPU_ReadMem(4 bytes @ 0xE000EDFC) -- CPU_ReadMem(4 bytes @ 0xE0001000) (0015ms, 0608ms total)
T3058 000:698 JLINK_Halt()  returns 0x00 (0000ms, 0608ms total)
T3058 000:698 JLINK_IsHalted()  returns TRUE (0000ms, 0608ms total)
T3058 000:698 JLINK_ReadMemU32(0xE000EDF0, 0x0001 Items, ...) -- CPU_ReadMem(4 bytes @ 0xE000EDF0) - Data: 03 00 03 00  returns 0x01 (0001ms, 0609ms total)
T3058 000:699 JLINK_WriteU32(0xE000EDF0, 0xA05F0003) -- CPU_WriteMem(4 bytes @ 0xE000EDF0)  returns 0x00 (0000ms, 0609ms total)
T3058 000:699 JLINK_WriteU32(0xE000EDFC, 0x01000000) -- CPU_WriteMem(4 bytes @ 0xE000EDFC)  returns 0x00 (0000ms, 0609ms total)
T3058 000:703 JLINK_GetHWStatus(...)  returns 0x00 (0000ms, 0609ms total)
T3058 000:705 JLINK_GetNumBPUnits(Type = 0xFFFFFF00)  returns 0x06 (0000ms, 0609ms total)
T3058 000:705 JLINK_GetNumBPUnits(Type = 0xF0)  returns 0x2000 (0000ms, 0609ms total)
T3058 000:705 JLINK_GetNumWPUnits()  returns 0x04 (0000ms, 0609ms total)
T3058 000:708 JLINK_GetSpeed()  returns 0xFA0 (0000ms, 0609ms total)
T3058 000:709 JLINK_ReadMemU32(0xE000E004, 0x0001 Items, ...) -- CPU_ReadMem(4 bytes @ 0xE000E004) - Data: 02 00 00 00  returns 0x01 (0000ms, 0609ms total)
T3058 000:709 JLINK_ReadMemU32(0xE000E004, 0x0001 Items, ...) -- CPU_ReadMem(4 bytes @ 0xE000E004) - Data: 02 00 00 00  returns 0x01 (0001ms, 0610ms total)
T3058 000:710 JLINK_WriteMem(0xE0001000, 0x001C Bytes, ...) - Data: 01 00 00 00 00 00 00 00 00 00 00 00 00 00 00 00 ... -- CPU_WriteMem(28 bytes @ 0xE0001000)  returns 0x1C (0001ms, 0611ms total)
T3058 000:711 JLINK_ReadMem (0xE0001000, 0x001C Bytes, ...) -- CPU_ReadMem(28 bytes @ 0xE0001000) - Data: 01 00 00 40 00 00 00 00 00 00 00 00 00 00 00 00 ...  returns 0x00 (0001ms, 0612ms total)
T3058 000:712 JLINK_Halt()  returns 0x00 (0000ms, 0612ms total)
T3058 000:712 JLINK_IsHalted()  returns TRUE (0000ms, 0612ms total)
T3058 000:717 JLINK_WriteMem(0x20000000, 0x0180 Bytes, ...) - Data: 00 BE 0A E0 0D 78 2D 06 68 40 08 24 40 00 00 D3 ... -- CPU_WriteMem(384 bytes @ 0x20000000)  returns 0x180 (0004ms, 0616ms total)
T3058 000:721 JLINK_WriteReg(R0, 0x08000000)  returns 0x00 (0000ms, 0616ms total)
T3058 000:721 JLINK_WriteReg(R1, 0x007A1200)  returns 0x00 (0000ms, 0616ms total)
T3058 000:721 JLINK_WriteReg(R2, 0x00000001)  returns 0x00 (0000ms, 0616ms total)
T3058 000:721 JLINK_WriteReg(R3, 0x00000000)  returns 0x00 (0000ms, 0616ms total)
T3058 000:721 JLINK_WriteReg(R4, 0x00000000)  returns 0x00 (0000ms, 0616ms total)
T3058 000:721 JLINK_WriteReg(R5, 0x00000000)  returns 0x00 (0000ms, 0616ms total)
T3058 000:721 JLINK_WriteReg(R6, 0x00000000)  returns 0x00 (0000ms, 0616ms total)
T3058 000:721 JLINK_WriteReg(R7, 0x00000000)  returns 0x00 (0000ms, 0616ms total)
T3058 000:721 JLINK_WriteReg(R8, 0x00000000)  returns 0x00 (0000ms, 0616ms total)
T3058 000:721 JLINK_WriteReg(R9, 0x2000017C)  returns 0x00 (0000ms, 0616ms total)
T3058 000:721 JLINK_WriteReg(R10, 0x00000000)  returns 0x00 (0000ms, 0616ms total)
T3058 000:721 JLINK_WriteReg(R11, 0x00000000)  returns 0x00 (0000ms, 0616ms total)
T3058 000:721 JLINK_WriteReg(R12, 0x00000000)  returns 0x00 (0000ms, 0616ms total)
T3058 000:721 JLINK_WriteReg(R13 (SP), 0x20001000)  returns 0x00 (0000ms, 0616ms total)
T3058 000:721 JLINK_WriteReg(R14, 0x20000001)  returns 0x00 (0000ms, 0616ms total)
T3058 000:721 JLINK_WriteReg(R15 (PC), 0x20000054)  returns 0x00 (0000ms, 0616ms total)
T3058 000:721 JLINK_WriteReg(XPSR, 0x01000000)  returns 0x00 (0000ms, 0616ms total)
T3058 000:721 JLINK_WriteReg(MSP, 0x20001000)  returns 0x00 (0000ms, 0616ms total)
T3058 000:721 JLINK_WriteReg(PSP, 0x20001000)  returns 0x00 (0000ms, 0616ms total)
T3058 000:721 JLINK_WriteReg(CFBP, 0x00000000)  returns 0x00 (0000ms, 0616ms total)
T3058 000:721 JLINK_SetBPEx(Addr = 0x20000000, Type = 0xFFFFFFF2) -- CPU_ReadMem(2 bytes @ 0x20000000)  returns 0x00000001 (0000ms, 0616ms total)
T3058 000:721 JLINK_Go() -- CPU_WriteMem(2 bytes @ 0x20000000) -- CPU_WriteMem(4 bytes @ 0xE0002008) -- CPU_WriteMem(4 bytes @ 0xE000200C) -- CPU_WriteMem(4 bytes @ 0xE0002010) -- CPU_WriteMem(4 bytes @ 0xE0002014) -- CPU_WriteMem(4 bytes @ 0xE0002018) -- CPU_WriteMem(4 bytes @ 0xE000201C) -- CPU_WriteMem(4 bytes @ 0xE0001004) (0004ms, 0620ms total)
T3058 000:725 JLINK_IsHalted() -- CPU_ReadMem(2 bytes @ 0x20000000)  returns TRUE (0003ms, 0623ms total)
T3058 000:728 JLINK_ReadReg(R15 (PC))  returns 0x20000000 (0000ms, 0620ms total)
T3058 000:728 JLINK_ClrBPEx(BPHandle = 0x00000001)  returns 0x00 (0000ms, 0620ms total)
T3058 000:728 JLINK_ReadReg(R0)  returns 0x00000000 (0000ms, 0620ms total)
T3058 000:729 JLINK_WriteReg(R0, 0x08000000)  returns 0x00 (0000ms, 0620ms total)
T3058 000:729 JLINK_WriteReg(R1, 0x00004000)  returns 0x00 (0000ms, 0620ms total)
T3058 000:729 JLINK_WriteReg(R2, 0x000000FF)  returns 0x00 (0000ms, 0620ms total)
T3058 000:729 JLINK_WriteReg(R3, 0x00000000)  returns 0x00 (0000ms, 0620ms total)
T3058 000:729 JLINK_WriteReg(R4, 0x00000000)  returns 0x00 (0000ms, 0620ms total)
T3058 000:729 JLINK_WriteReg(R5, 0x00000000)  returns 0x00 (0000ms, 0620ms total)
T3058 000:729 JLINK_WriteReg(R6, 0x00000000)  returns 0x00 (0000ms, 0620ms total)
T3058 000:729 JLINK_WriteReg(R7, 0x00000000)  returns 0x00 (0000ms, 0620ms total)
T3058 000:729 JLINK_WriteReg(R8, 0x00000000)  returns 0x00 (0000ms, 0620ms total)
T3058 000:729 JLINK_WriteReg(R9, 0x2000017C)  returns 0x00 (0000ms, 0620ms total)
T3058 000:729 JLINK_WriteReg(R10, 0x00000000)  returns 0x00 (0000ms, 0620ms total)
T3058 000:729 JLINK_WriteReg(R11, 0x00000000)  returns 0x00 (0000ms, 0620ms total)
T3058 000:729 JLINK_WriteReg(R12, 0x00000000)  returns 0x00 (0000ms, 0620ms total)
T3058 000:729 JLINK_WriteReg(R13 (SP), 0x20001000)  returns 0x00 (0000ms, 0620ms total)
T3058 000:729 JLINK_WriteReg(R14, 0x20000001)  returns 0x00 (0000ms, 0620ms total)
T3058 000:729 JLINK_WriteReg(R15 (PC), 0x20000020)  returns 0x00 (0000ms, 0620ms total)
T3058 000:729 JLINK_WriteReg(XPSR, 0x01000000)  returns 0x00 (0000ms, 0620ms total)
T3058 000:729 JLINK_WriteReg(MSP, 0x20001000)  returns 0x00 (0000ms, 0620ms total)
T3058 000:729 JLINK_WriteReg(PSP, 0x20001000)  returns 0x00 (0000ms, 0620ms total)
T3058 000:729 JLINK_WriteReg(CFBP, 0x00000000)  returns 0x00 (0000ms, 0620ms total)
T3058 000:729 JLINK_SetBPEx(Addr = 0x20000000, Type = 0xFFFFFFF2)  returns 0x00000002 (0000ms, 0620ms total)
T3058 000:729 JLINK_Go() (0001ms, 0621ms total)
T3058 000:730 JLINK_IsHalted() -- CPU_ReadMem(2 bytes @ 0x20000000)  returns TRUE (0003ms, 0624ms total)
T3058 000:733 JLINK_ReadReg(R15 (PC))  returns 0x20000000 (0000ms, 0621ms total)
T3058 000:733 JLINK_ClrBPEx(BPHandle = 0x00000002)  returns 0x00 (0000ms, 0621ms total)
T3058 000:733 JLINK_ReadReg(R0)  returns 0x00000001 (0000ms, 0621ms total)
T3058 000:733 JLINK_WriteReg(R0, 0x08000000)  returns 0x00 (0000ms, 0621ms total)
T3058 000:733 JLINK_WriteReg(R1, 0x00004000)  returns 0x00 (0000ms, 0621ms total)
T3058 000:733 JLINK_WriteReg(R2, 0x000000FF)  returns 0x00 (0000ms, 0621ms total)
T3058 000:733 JLINK_WriteReg(R3, 0x00000000)  returns 0x00 (0000ms, 0621ms total)
T3058 000:733 JLINK_WriteReg(R4, 0x00000000)  returns 0x00 (0000ms, 0621ms total)
T3058 000:733 JLINK_WriteReg(R5, 0x00000000)  returns 0x00 (0000ms, 0621ms total)
T3058 000:733 JLINK_WriteReg(R6, 0x00000000)  returns 0x00 (0000ms, 0621ms total)
T3058 000:733 JLINK_WriteReg(R7, 0x00000000)  returns 0x00 (0000ms, 0621ms total)
T3058 000:733 JLINK_WriteReg(R8, 0x00000000)  returns 0x00 (0000ms, 0621ms total)
T3058 000:733 JLINK_WriteReg(R9, 0x2000017C)  returns 0x00 (0000ms, 0621ms total)
T3058 000:733 JLINK_WriteReg(R10, 0x00000000)  returns 0x00 (0000ms, 0621ms total)
T3058 000:733 JLINK_WriteReg(R11, 0x00000000)  returns 0x00 (0000ms, 0621ms total)
T3058 000:733 JLINK_WriteReg(R12, 0x00000000)  returns 0x00 (0000ms, 0621ms total)
T3058 000:733 JLINK_WriteReg(R13 (SP), 0x20001000)  returns 0x00 (0000ms, 0621ms total)
T3058 000:733 JLINK_WriteReg(R14, 0x20000001)  returns 0x00 (0000ms, 0621ms total)
T3058 000:733 JLINK_WriteReg(R15 (PC), 0x200000BC)  returns 0x00 (0000ms, 0621ms total)
T3058 000:733 JLINK_WriteReg(XPSR, 0x01000000)  returns 0x00 (0000ms, 0621ms total)
T3058 000:733 JLINK_WriteReg(MSP, 0x20001000)  returns 0x00 (0000ms, 0621ms total)
T3058 000:733 JLINK_WriteReg(PSP, 0x20001000)  returns 0x00 (0000ms, 0621ms total)
T3058 000:733 JLINK_WriteReg(CFBP, 0x00000000)  returns 0x00 (0000ms, 0621ms total)
T3058 000:733 JLINK_SetBPEx(Addr = 0x20000000, Type = 0xFFFFFFF2)  returns 0x00000003 (0000ms, 0621ms total)
T3058 000:733 JLINK_Go() (0001ms, 0622ms total)
T3058 000:734 JLINK_IsHalted()  returns FALSE (0000ms, 0622ms total)
T3058 001:005 JLINK_IsHalted()  returns FALSE (0001ms, 0623ms total)
T3058 001:179 JLINK_IsHalted() -- CPU_ReadMem(2 bytes @ 0x20000000)  returns TRUE (0002ms, 0624ms total)
T3058 001:181 JLINK_ReadReg(R15 (PC))  returns 0x20000000 (0000ms, 0622ms total)
T3058 001:181 JLINK_ClrBPEx(BPHandle = 0x00000003)  returns 0x00 (0000ms, 0622ms total)
T3058 001:181 JLINK_ReadReg(R0)  returns 0x00000000 (0000ms, 0622ms total)
T3058 001:182 JLINK_WriteReg(R0, 0x08004000)  returns 0x00 (0000ms, 0622ms total)
T3058 001:182 JLINK_WriteReg(R1, 0x00004000)  returns 0x00 (0000ms, 0622ms total)
T3058 001:182 JLINK_WriteReg(R2, 0x000000FF)  returns 0x00 (0000ms, 0622ms total)
T3058 001:182 JLINK_WriteReg(R3, 0x00000000)  returns 0x00 (0000ms, 0622ms total)
T3058 001:182 JLINK_WriteReg(R4, 0x00000000)  returns 0x00 (0000ms, 0622ms total)
T3058 001:182 JLINK_WriteReg(R5, 0x00000000)  returns 0x00 (0000ms, 0622ms total)
T3058 001:182 JLINK_WriteReg(R6, 0x00000000)  returns 0x00 (0000ms, 0622ms total)
T3058 001:182 JLINK_WriteReg(R7, 0x00000000)  returns 0x00 (0000ms, 0622ms total)
T3058 001:182 JLINK_WriteReg(R8, 0x00000000)  returns 0x00 (0000ms, 0622ms total)
T3058 001:182 JLINK_WriteReg(R9, 0x2000017C)  returns 0x00 (0000ms, 0622ms total)
T3058 001:182 JLINK_WriteReg(R10, 0x00000000)  returns 0x00 (0000ms, 0622ms total)
T3058 001:182 JLINK_WriteReg(R11, 0x00000000)  returns 0x00 (0000ms, 0622ms total)
T3058 001:182 JLINK_WriteReg(R12, 0x00000000)  returns 0x00 (0000ms, 0622ms total)
T3058 001:182 JLINK_WriteReg(R13 (SP), 0x20001000)  returns 0x00 (0000ms, 0622ms total)
T3058 001:182 JLINK_WriteReg(R14, 0x20000001)  returns 0x00 (0000ms, 0622ms total)
T3058 001:182 JLINK_WriteReg(R15 (PC), 0x20000020)  returns 0x00 (0000ms, 0622ms total)
T3058 001:182 JLINK_WriteReg(XPSR, 0x01000000)  returns 0x00 (0000ms, 0622ms total)
T3058 001:182 JLINK_WriteReg(MSP, 0x20001000)  returns 0x00 (0000ms, 0622ms total)
T3058 001:182 JLINK_WriteReg(PSP, 0x20001000)  returns 0x00 (0000ms, 0622ms total)
T3058 001:182 JLINK_WriteReg(CFBP, 0x00000000)  returns 0x00 (0000ms, 0622ms total)
T3058 001:183 JLINK_SetBPEx(Addr = 0x20000000, Type = 0xFFFFFFF2)  returns 0x00000004 (0000ms, 0623ms total)
T3058 001:183 JLINK_Go() (0001ms, 0624ms total)
T3058 001:184 JLINK_IsHalted() -- CPU_ReadMem(2 bytes @ 0x20000000)  returns TRUE (0002ms, 0626ms total)
T3058 001:186 JLINK_ReadReg(R15 (PC))  returns 0x20000000 (0000ms, 0624ms total)
T3058 001:186 JLINK_ClrBPEx(BPHandle = 0x00000004)  returns 0x00 (0000ms, 0624ms total)
T3058 001:186 JLINK_ReadReg(R0)  returns 0x00000001 (0000ms, 0624ms total)
T3058 001:186 JLINK_WriteReg(R0, 0x08004000)  returns 0x00 (0000ms, 0624ms total)
T3058 001:186 JLINK_WriteReg(R1, 0x00004000)  returns 0x00 (0000ms, 0624ms total)
T3058 001:186 JLINK_WriteReg(R2, 0x000000FF)  returns 0x00 (0000ms, 0624ms total)
T3058 001:186 JLINK_WriteReg(R3, 0x00000000)  returns 0x00 (0000ms, 0624ms total)
T3058 001:186 JLINK_WriteReg(R4, 0x00000000)  returns 0x00 (0000ms, 0624ms total)
T3058 001:186 JLINK_WriteReg(R5, 0x00000000)  returns 0x00 (0000ms, 0624ms total)
T3058 001:186 JLINK_WriteReg(R6, 0x00000000)  returns 0x00 (0000ms, 0624ms total)
T3058 001:186 JLINK_WriteReg(R7, 0x00000000)  returns 0x00 (0000ms, 0624ms total)
T3058 001:186 JLINK_WriteReg(R8, 0x00000000)  returns 0x00 (0000ms, 0624ms total)
T3058 001:186 JLINK_WriteReg(R9, 0x2000017C)  returns 0x00 (0000ms, 0624ms total)
T3058 001:186 JLINK_WriteReg(R10, 0x00000000)  returns 0x00 (0000ms, 0624ms total)
T3058 001:186 JLINK_WriteReg(R11, 0x00000000)  returns 0x00 (0000ms, 0624ms total)
T3058 001:186 JLINK_WriteReg(R12, 0x00000000)  returns 0x00 (0001ms, 0625ms total)
T3058 001:187 JLINK_WriteReg(R13 (SP), 0x20001000)  returns 0x00 (0000ms, 0625ms total)
T3058 001:187 JLINK_WriteReg(R14, 0x20000001)  returns 0x00 (0000ms, 0625ms total)
T3058 001:187 JLINK_WriteReg(R15 (PC), 0x200000BC)  returns 0x00 (0000ms, 0625ms total)
T3058 001:187 JLINK_WriteReg(XPSR, 0x01000000)  returns 0x00 (0000ms, 0625ms total)
T3058 001:187 JLINK_WriteReg(MSP, 0x20001000)  returns 0x00 (0000ms, 0625ms total)
T3058 001:187 JLINK_WriteReg(PSP, 0x20001000)  returns 0x00 (0000ms, 0625ms total)
T3058 001:187 JLINK_WriteReg(CFBP, 0x00000000)  returns 0x00 (0000ms, 0625ms total)
T3058 001:187 JLINK_SetBPEx(Addr = 0x20000000, Type = 0xFFFFFFF2)  returns 0x00000005 (0000ms, 0625ms total)
T3058 001:187 JLINK_Go() (0001ms, 0626ms total)
T3058 001:188 JLINK_IsHalted()  returns FALSE (0000ms, 0626ms total)
T3058 001:345 JLINK_IsHalted()  returns FALSE (0001ms, 0627ms total)
T3058 001:508 JLINK_IsHalted()  returns FALSE (0000ms, 0626ms total)
T3058 001:671 JLINK_IsHalted() -- CPU_ReadMem(2 bytes @ 0x20000000)  returns TRUE (0003ms, 0629ms total)
T3058 001:674 JLINK_ReadReg(R15 (PC))  returns 0x20000000 (0000ms, 0626ms total)
T3058 001:674 JLINK_ClrBPEx(BPHandle = 0x00000005)  returns 0x00 (0000ms, 0626ms total)
T3058 001:674 JLINK_ReadReg(R0)  returns 0x00000000 (0000ms, 0626ms total)
T3058 001:675 JLINK_WriteReg(R0, 0x08008000)  returns 0x00 (0000ms, 0626ms total)
T3058 001:675 JLINK_WriteReg(R1, 0x00004000)  returns 0x00 (0000ms, 0626ms total)
T3058 001:675 JLINK_WriteReg(R2, 0x000000FF)  returns 0x00 (0000ms, 0626ms total)
T3058 001:675 JLINK_WriteReg(R3, 0x00000000)  returns 0x00 (0000ms, 0626ms total)
T3058 001:675 JLINK_WriteReg(R4, 0x00000000)  returns 0x00 (0001ms, 0627ms total)
T3058 001:676 JLINK_WriteReg(R5, 0x00000000)  returns 0x00 (0000ms, 0627ms total)
T3058 001:676 JLINK_WriteReg(R6, 0x00000000)  returns 0x00 (0000ms, 0627ms total)
T3058 001:676 JLINK_WriteReg(R7, 0x00000000)  returns 0x00 (0000ms, 0627ms total)
T3058 001:676 JLINK_WriteReg(R8, 0x00000000)  returns 0x00 (0000ms, 0627ms total)
T3058 001:676 JLINK_WriteReg(R9, 0x2000017C)  returns 0x00 (0000ms, 0627ms total)
T3058 001:676 JLINK_WriteReg(R10, 0x00000000)  returns 0x00 (0000ms, 0627ms total)
T3058 001:676 JLINK_WriteReg(R11, 0x00000000)  returns 0x00 (0000ms, 0627ms total)
T3058 001:676 JLINK_WriteReg(R12, 0x00000000)  returns 0x00 (0000ms, 0627ms total)
T3058 001:676 JLINK_WriteReg(R13 (SP), 0x20001000)  returns 0x00 (0000ms, 0627ms total)
T3058 001:676 JLINK_WriteReg(R14, 0x20000001)  returns 0x00 (0000ms, 0627ms total)
T3058 001:676 JLINK_WriteReg(R15 (PC), 0x20000020)  returns 0x00 (0000ms, 0627ms total)
T3058 001:676 JLINK_WriteReg(XPSR, 0x01000000)  returns 0x00 (0000ms, 0627ms total)
T3058 001:676 JLINK_WriteReg(MSP, 0x20001000)  returns 0x00 (0000ms, 0627ms total)
T3058 001:676 JLINK_WriteReg(PSP, 0x20001000)  returns 0x00 (0000ms, 0627ms total)
T3058 001:676 JLINK_WriteReg(CFBP, 0x00000000)  returns 0x00 (0000ms, 0627ms total)
T3058 001:676 JLINK_SetBPEx(Addr = 0x20000000, Type = 0xFFFFFFF2)  returns 0x00000006 (0000ms, 0627ms total)
T3058 001:676 JLINK_Go() (0001ms, 0628ms total)
T3058 001:677 JLINK_IsHalted() -- CPU_ReadMem(2 bytes @ 0x20000000)  returns TRUE (0002ms, 0630ms total)
T3058 001:679 JLINK_ReadReg(R15 (PC))  returns 0x20000000 (0000ms, 0628ms total)
T3058 001:679 JLINK_ClrBPEx(BPHandle = 0x00000006)  returns 0x00 (0000ms, 0628ms total)
T3058 001:679 JLINK_ReadReg(R0)  returns 0x00000001 (0000ms, 0628ms total)
T3058 001:679 JLINK_WriteReg(R0, 0x08008000)  returns 0x00 (0001ms, 0629ms total)
T3058 001:680 JLINK_WriteReg(R1, 0x00004000)  returns 0x00 (0000ms, 0629ms total)
T3058 001:680 JLINK_WriteReg(R2, 0x000000FF)  returns 0x00 (0000ms, 0629ms total)
T3058 001:680 JLINK_WriteReg(R3, 0x00000000)  returns 0x00 (0000ms, 0629ms total)
T3058 001:680 JLINK_WriteReg(R4, 0x00000000)  returns 0x00 (0000ms, 0629ms total)
T3058 001:680 JLINK_WriteReg(R5, 0x00000000)  returns 0x00 (0000ms, 0629ms total)
T3058 001:680 JLINK_WriteReg(R6, 0x00000000)  returns 0x00 (0000ms, 0629ms total)
T3058 001:680 JLINK_WriteReg(R7, 0x00000000)  returns 0x00 (0000ms, 0629ms total)
T3058 001:680 JLINK_WriteReg(R8, 0x00000000)  returns 0x00 (0000ms, 0629ms total)
T3058 001:680 JLINK_WriteReg(R9, 0x2000017C)  returns 0x00 (0000ms, 0629ms total)
T3058 001:680 JLINK_WriteReg(R10, 0x00000000)  returns 0x00 (0000ms, 0629ms total)
T3058 001:680 JLINK_WriteReg(R11, 0x00000000)  returns 0x00 (0000ms, 0629ms total)
T3058 001:680 JLINK_WriteReg(R12, 0x00000000)  returns 0x00 (0000ms, 0629ms total)
T3058 001:680 JLINK_WriteReg(R13 (SP), 0x20001000)  returns 0x00 (0000ms, 0629ms total)
T3058 001:680 JLINK_WriteReg(R14, 0x20000001)  returns 0x00 (0000ms, 0629ms total)
T3058 001:680 JLINK_WriteReg(R15 (PC), 0x200000BC)  returns 0x00 (0000ms, 0629ms total)
T3058 001:680 JLINK_WriteReg(XPSR, 0x01000000)  returns 0x00 (0000ms, 0629ms total)
T3058 001:680 JLINK_WriteReg(MSP, 0x20001000)  returns 0x00 (0000ms, 0629ms total)
T3058 001:680 JLINK_WriteReg(PSP, 0x20001000)  returns 0x00 (0000ms, 0629ms total)
T3058 001:680 JLINK_WriteReg(CFBP, 0x00000000)  returns 0x00 (0000ms, 0629ms total)
T3058 001:680 JLINK_SetBPEx(Addr = 0x20000000, Type = 0xFFFFFFF2)  returns 0x00000007 (0000ms, 0629ms total)
T3058 001:680 JLINK_Go() (0001ms, 0630ms total)
T3058 001:681 JLINK_IsHalted()  returns FALSE (0000ms, 0630ms total)
T3058 001:843 JLINK_IsHalted()  returns FALSE (0000ms, 0630ms total)
T3058 002:000 JLINK_IsHalted()  returns FALSE (0000ms, 0630ms total)
T3058 002:155 JLINK_IsHalted() -- CPU_ReadMem(2 bytes @ 0x20000000)  returns TRUE (0003ms, 0633ms total)
T3058 002:158 JLINK_ReadReg(R15 (PC))  returns 0x20000000 (0000ms, 0630ms total)
T3058 002:158 JLINK_ClrBPEx(BPHandle = 0x00000007)  returns 0x00 (0000ms, 0630ms total)
T3058 002:158 JLINK_ReadReg(R0)  returns 0x00000000 (0000ms, 0630ms total)
T3058 002:159 JLINK_WriteReg(R0, 0x0800C000)  returns 0x00 (0000ms, 0630ms total)
T3058 002:159 JLINK_WriteReg(R1, 0x00004000)  returns 0x00 (0000ms, 0630ms total)
T3058 002:159 JLINK_WriteReg(R2, 0x000000FF)  returns 0x00 (0000ms, 0630ms total)
T3058 002:159 JLINK_WriteReg(R3, 0x00000000)  returns 0x00 (0000ms, 0630ms total)
T3058 002:159 JLINK_WriteReg(R4, 0x00000000)  returns 0x00 (0000ms, 0630ms total)
T3058 002:159 JLINK_WriteReg(R5, 0x00000000)  returns 0x00 (0000ms, 0630ms total)
T3058 002:159 JLINK_WriteReg(R6, 0x00000000)  returns 0x00 (0000ms, 0630ms total)
T3058 002:159 JLINK_WriteReg(R7, 0x00000000)  returns 0x00 (0000ms, 0630ms total)
T3058 002:159 JLINK_WriteReg(R8, 0x00000000)  returns 0x00 (0000ms, 0630ms total)
T3058 002:159 JLINK_WriteReg(R9, 0x2000017C)  returns 0x00 (0000ms, 0630ms total)
T3058 002:159 JLINK_WriteReg(R10, 0x00000000)  returns 0x00 (0000ms, 0630ms total)
T3058 002:159 JLINK_WriteReg(R11, 0x00000000)  returns 0x00 (0000ms, 0630ms total)
T3058 002:159 JLINK_WriteReg(R12, 0x00000000)  returns 0x00 (0000ms, 0630ms total)
T3058 002:159 JLINK_WriteReg(R13 (SP), 0x20001000)  returns 0x00 (0000ms, 0630ms total)
T3058 002:159 JLINK_WriteReg(R14, 0x20000001)  returns 0x00 (0000ms, 0630ms total)
T3058 002:159 JLINK_WriteReg(R15 (PC), 0x20000020)  returns 0x00 (0000ms, 0630ms total)
T3058 002:159 JLINK_WriteReg(XPSR, 0x01000000)  returns 0x00 (0000ms, 0630ms total)
T3058 002:159 JLINK_WriteReg(MSP, 0x20001000)  returns 0x00 (0000ms, 0630ms total)
T3058 002:159 JLINK_WriteReg(PSP, 0x20001000)  returns 0x00 (0000ms, 0630ms total)
T3058 002:159 JLINK_WriteReg(CFBP, 0x00000000)  returns 0x00 (0000ms, 0630ms total)
T3058 002:159 JLINK_SetBPEx(Addr = 0x20000000, Type = 0xFFFFFFF2)  returns 0x00000008 (0000ms, 0630ms total)
T3058 002:159 JLINK_Go() (0001ms, 0631ms total)
T3058 002:160 JLINK_IsHalted() -- CPU_ReadMem(2 bytes @ 0x20000000)  returns TRUE (0003ms, 0634ms total)
T3058 002:163 JLINK_ReadReg(R15 (PC))  returns 0x20000000 (0000ms, 0631ms total)
T3058 002:163 JLINK_ClrBPEx(BPHandle = 0x00000008)  returns 0x00 (0000ms, 0631ms total)
T3058 002:163 JLINK_ReadReg(R0)  returns 0x00000001 (0000ms, 0631ms total)
T3058 002:163 JLINK_WriteReg(R0, 0x0800C000)  returns 0x00 (0000ms, 0631ms total)
T3058 002:163 JLINK_WriteReg(R1, 0x00004000)  returns 0x00 (0000ms, 0631ms total)
T3058 002:163 JLINK_WriteReg(R2, 0x000000FF)  returns 0x00 (0000ms, 0631ms total)
T3058 002:163 JLINK_WriteReg(R3, 0x00000000)  returns 0x00 (0000ms, 0631ms total)
T3058 002:163 JLINK_WriteReg(R4, 0x00000000)  returns 0x00 (0000ms, 0631ms total)
T3058 002:163 JLINK_WriteReg(R5, 0x00000000)  returns 0x00 (0000ms, 0631ms total)
T3058 002:163 JLINK_WriteReg(R6, 0x00000000)  returns 0x00 (0000ms, 0631ms total)
T3058 002:163 JLINK_WriteReg(R7, 0x00000000)  returns 0x00 (0000ms, 0631ms total)
T3058 002:163 JLINK_WriteReg(R8, 0x00000000)  returns 0x00 (0000ms, 0631ms total)
T3058 002:163 JLINK_WriteReg(R9, 0x2000017C)  returns 0x00 (0000ms, 0631ms total)
T3058 002:163 JLINK_WriteReg(R10, 0x00000000)  returns 0x00 (0000ms, 0631ms total)
T3058 002:163 JLINK_WriteReg(R11, 0x00000000)  returns 0x00 (0000ms, 0631ms total)
T3058 002:163 JLINK_WriteReg(R12, 0x00000000)  returns 0x00 (0000ms, 0631ms total)
T3058 002:163 JLINK_WriteReg(R13 (SP), 0x20001000)  returns 0x00 (0000ms, 0631ms total)
T3058 002:163 JLINK_WriteReg(R14, 0x20000001)  returns 0x00 (0000ms, 0631ms total)
T3058 002:163 JLINK_WriteReg(R15 (PC), 0x200000BC)  returns 0x00 (0000ms, 0631ms total)
T3058 002:163 JLINK_WriteReg(XPSR, 0x01000000)  returns 0x00 (0000ms, 0631ms total)
T3058 002:163 JLINK_WriteReg(MSP, 0x20001000)  returns 0x00 (0000ms, 0631ms total)
T3058 002:163 JLINK_WriteReg(PSP, 0x20001000)  returns 0x00 (0000ms, 0631ms total)
T3058 002:163 JLINK_WriteReg(CFBP, 0x00000000)  returns 0x00 (0000ms, 0631ms total)
T3058 002:163 JLINK_SetBPEx(Addr = 0x20000000, Type = 0xFFFFFFF2)  returns 0x00000009 (0000ms, 0631ms total)
T3058 002:163 JLINK_Go() (0001ms, 0632ms total)
T3058 002:164 JLINK_IsHalted()  returns FALSE (0001ms, 0633ms total)
T3058 002:346 JLINK_IsHalted()  returns FALSE (0000ms, 0632ms total)
T3058 002:508 JLINK_IsHalted() -- CPU_ReadMem(2 bytes @ 0x20000000)  returns TRUE (0003ms, 0635ms total)
T3058 002:511 JLINK_ReadReg(R15 (PC))  returns 0x20000000 (0000ms, 0632ms total)
T3058 002:511 JLINK_ClrBPEx(BPHandle = 0x00000009)  returns 0x00 (0000ms, 0632ms total)
T3058 002:511 JLINK_ReadReg(R0)  returns 0x00000000 (0000ms, 0632ms total)
T3058 002:511 JLINK_WriteReg(R0, 0x00000001)  returns 0x00 (0000ms, 0632ms total)
T3058 002:511 JLINK_WriteReg(R1, 0x00004000)  returns 0x00 (0000ms, 0632ms total)
T3058 002:511 JLINK_WriteReg(R2, 0x000000FF)  returns 0x00 (0000ms, 0632ms total)
T3058 002:511 JLINK_WriteReg(R3, 0x00000000)  returns 0x00 (0000ms, 0632ms total)
T3058 002:511 JLINK_WriteReg(R4, 0x00000000)  returns 0x00 (0000ms, 0632ms total)
T3058 002:511 JLINK_WriteReg(R5, 0x00000000)  returns 0x00 (0000ms, 0632ms total)
T3058 002:511 JLINK_WriteReg(R6, 0x00000000)  returns 0x00 (0000ms, 0632ms total)
T3058 002:511 JLINK_WriteReg(R7, 0x00000000)  returns 0x00 (0000ms, 0632ms total)
T3058 002:511 JLINK_WriteReg(R8, 0x00000000)  returns 0x00 (0000ms, 0632ms total)
T3058 002:511 JLINK_WriteReg(R9, 0x2000017C)  returns 0x00 (0000ms, 0632ms total)
T3058 002:511 JLINK_WriteReg(R10, 0x00000000)  returns 0x00 (0000ms, 0632ms total)
T3058 002:511 JLINK_WriteReg(R11, 0x00000000)  returns 0x00 (0000ms, 0632ms total)
T3058 002:511 JLINK_WriteReg(R12, 0x00000000)  returns 0x00 (0000ms, 0632ms total)
T3058 002:511 JLINK_WriteReg(R13 (SP), 0x20001000)  returns 0x00 (0000ms, 0632ms total)
T3058 002:511 JLINK_WriteReg(R14, 0x20000001)  returns 0x00 (0000ms, 0632ms total)
T3058 002:511 JLINK_WriteReg(R15 (PC), 0x20000082)  returns 0x00 (0000ms, 0632ms total)
T3058 002:511 JLINK_WriteReg(XPSR, 0x01000000)  returns 0x00 (0000ms, 0632ms total)
T3058 002:511 JLINK_WriteReg(MSP, 0x20001000)  returns 0x00 (0000ms, 0632ms total)
T3058 002:511 JLINK_WriteReg(PSP, 0x20001000)  returns 0x00 (0000ms, 0632ms total)
T3058 002:511 JLINK_WriteReg(CFBP, 0x00000000)  returns 0x00 (0000ms, 0632ms total)
T3058 002:511 JLINK_SetBPEx(Addr = 0x20000000, Type = 0xFFFFFFF2)  returns 0x0000000A (0000ms, 0632ms total)
T3058 002:511 JLINK_Go() (0002ms, 0634ms total)
T3058 002:513 JLINK_IsHalted() -- CPU_ReadMem(2 bytes @ 0x20000000)  returns TRUE (0002ms, 0636ms total)
T3058 002:515 JLINK_ReadReg(R15 (PC))  returns 0x20000000 (0000ms, 0634ms total)
T3058 002:515 JLINK_ClrBPEx(BPHandle = 0x0000000A)  returns 0x00 (0000ms, 0634ms total)
T3058 002:515 JLINK_ReadReg(R0)  returns 0x00000000 (0000ms, 0634ms total)
T3058 002:574 JLINK_WriteMem(0x20000000, 0x0180 Bytes, ...) - Data: 00 BE 0A E0 0D 78 2D 06 68 40 08 24 40 00 00 D3 ... -- CPU_WriteMem(384 bytes @ 0x20000000)  returns 0x180 (0003ms, 0637ms total)
T3058 002:577 JLINK_WriteReg(R0, 0x08000000)  returns 0x00 (0000ms, 0637ms total)
T3058 002:577 JLINK_WriteReg(R1, 0x007A1200)  returns 0x00 (0000ms, 0637ms total)
T3058 002:577 JLINK_WriteReg(R2, 0x00000002)  returns 0x00 (0000ms, 0637ms total)
T3058 002:577 JLINK_WriteReg(R3, 0x00000000)  returns 0x00 (0000ms, 0637ms total)
T3058 002:577 JLINK_WriteReg(R4, 0x00000000)  returns 0x00 (0000ms, 0637ms total)
T3058 002:577 JLINK_WriteReg(R5, 0x00000000)  returns 0x00 (0000ms, 0637ms total)
T3058 002:577 JLINK_WriteReg(R6, 0x00000000)  returns 0x00 (0000ms, 0637ms total)
T3058 002:577 JLINK_WriteReg(R7, 0x00000000)  returns 0x00 (0000ms, 0637ms total)
T3058 002:577 JLINK_WriteReg(R8, 0x00000000)  returns 0x00 (0000ms, 0637ms total)
T3058 002:577 JLINK_WriteReg(R9, 0x2000017C)  returns 0x00 (0000ms, 0637ms total)
T3058 002:577 JLINK_WriteReg(R10, 0x00000000)  returns 0x00 (0000ms, 0637ms total)
T3058 002:577 JLINK_WriteReg(R11, 0x00000000)  returns 0x00 (0000ms, 0637ms total)
T3058 002:577 JLINK_WriteReg(R12, 0x00000000)  returns 0x00 (0000ms, 0637ms total)
T3058 002:577 JLINK_WriteReg(R13 (SP), 0x20001000)  returns 0x00 (0000ms, 0637ms total)
T3058 002:577 JLINK_WriteReg(R14, 0x20000001)  returns 0x00 (0000ms, 0637ms total)
T3058 002:577 JLINK_WriteReg(R15 (PC), 0x20000054)  returns 0x00 (0000ms, 0637ms total)
T3058 002:577 JLINK_WriteReg(XPSR, 0x01000000)  returns 0x00 (0000ms, 0637ms total)
T3058 002:577 JLINK_WriteReg(MSP, 0x20001000)  returns 0x00 (0000ms, 0637ms total)
T3058 002:577 JLINK_WriteReg(PSP, 0x20001000)  returns 0x00 (0000ms, 0637ms total)
T3058 002:577 JLINK_WriteReg(CFBP, 0x00000000)  returns 0x00 (0000ms, 0637ms total)
T3058 002:577 JLINK_SetBPEx(Addr = 0x20000000, Type = 0xFFFFFFF2) -- CPU_ReadMem(2 bytes @ 0x20000000)  returns 0x0000000B (0001ms, 0638ms total)
T3058 002:578 JLINK_Go() -- CPU_WriteMem(2 bytes @ 0x20000000) (0001ms, 0639ms total)
T3058 002:579 JLINK_IsHalted() -- CPU_ReadMem(2 bytes @ 0x20000000)  returns TRUE (0003ms, 0642ms total)
T3058 002:582 JLINK_ReadReg(R15 (PC))  returns 0x20000000 (0000ms, 0639ms total)
T3058 002:582 JLINK_ClrBPEx(BPHandle = 0x0000000B)  returns 0x00 (0000ms, 0639ms total)
T3058 002:582 JLINK_ReadReg(R0)  returns 0x00000000 (0000ms, 0639ms total)
T3058 002:582 JLINK_WriteMem(0x20000180, 0x0400 Bytes, ...) - Data: 98 19 00 20 51 64 00 08 9D 08 00 08 9F 08 00 08 ... -- CPU_WriteMem(1024 bytes @ 0x20000180)  returns 0x400 (0007ms, 0646ms total)
T3058 002:589 JLINK_WriteReg(R0, 0x08000000)  returns 0x00 (0000ms, 0646ms total)
T3058 002:589 JLINK_WriteReg(R1, 0x00000400)  returns 0x00 (0000ms, 0646ms total)
T3058 002:589 JLINK_WriteReg(R2, 0x20000180)  returns 0x00 (0000ms, 0646ms total)
T3058 002:589 JLINK_WriteReg(R3, 0x00000000)  returns 0x00 (0000ms, 0646ms total)
T3058 002:589 JLINK_WriteReg(R4, 0x00000000)  returns 0x00 (0000ms, 0646ms total)
T3058 002:589 JLINK_WriteReg(R5, 0x00000000)  returns 0x00 (0000ms, 0646ms total)
T3058 002:589 JLINK_WriteReg(R6, 0x00000000)  returns 0x00 (0000ms, 0646ms total)
T3058 002:589 JLINK_WriteReg(R7, 0x00000000)  returns 0x00 (0000ms, 0646ms total)
T3058 002:589 JLINK_WriteReg(R8, 0x00000000)  returns 0x00 (0000ms, 0646ms total)
T3058 002:589 JLINK_WriteReg(R9, 0x2000017C)  returns 0x00 (0000ms, 0646ms total)
T3058 002:589 JLINK_WriteReg(R10, 0x00000000)  returns 0x00 (0000ms, 0646ms total)
T3058 002:589 JLINK_WriteReg(R11, 0x00000000)  returns 0x00 (0000ms, 0646ms total)
T3058 002:589 JLINK_WriteReg(R12, 0x00000000)  returns 0x00 (0000ms, 0646ms total)
T3058 002:589 JLINK_WriteReg(R13 (SP), 0x20001000)  returns 0x00 (0000ms, 0646ms total)
T3058 002:589 JLINK_WriteReg(R14, 0x20000001)  returns 0x00 (0000ms, 0646ms total)
T3058 002:589 JLINK_WriteReg(R15 (PC), 0x20000108)  returns 0x00 (0000ms, 0646ms total)
T3058 002:589 JLINK_WriteReg(XPSR, 0x01000000)  returns 0x00 (0000ms, 0646ms total)
T3058 002:589 JLINK_WriteReg(MSP, 0x20001000)  returns 0x00 (0000ms, 0646ms total)
T3058 002:589 JLINK_WriteReg(PSP, 0x20001000)  returns 0x00 (0000ms, 0646ms total)
T3058 002:589 JLINK_WriteReg(CFBP, 0x00000000)  returns 0x00 (0000ms, 0646ms total)
T3058 002:589 JLINK_SetBPEx(Addr = 0x20000000, Type = 0xFFFFFFF2)  returns 0x0000000C (0000ms, 0646ms total)
T3058 002:589 JLINK_Go() (0001ms, 0647ms total)
T3058 002:590 JLINK_IsHalted()  returns FALSE (0001ms, 0648ms total)
T3058 002:719 JLINK_IsHalted() -- CPU_ReadMem(2 bytes @ 0x20000000)  returns TRUE (0002ms, 0649ms total)
T3058 002:721 JLINK_ReadReg(R15 (PC))  returns 0x20000000 (0000ms, 0647ms total)
T3058 002:721 JLINK_ClrBPEx(BPHandle = 0x0000000C)  returns 0x00 (0000ms, 0647ms total)
T3058 002:721 JLINK_ReadReg(R0)  returns 0x00000000 (0000ms, 0647ms total)
T3058 002:722 JLINK_WriteMem(0x20000180, 0x0400 Bytes, ...) - Data: 10 21 0B 46 3C 22 CD E9 00 10 57 21 87 20 02 F0 ... -- CPU_WriteMem(1024 bytes @ 0x20000180)  returns 0x400 (0007ms, 0654ms total)
T3058 002:729 JLINK_WriteReg(R0, 0x08000400)  returns 0x00 (0000ms, 0654ms total)
T3058 002:729 JLINK_WriteReg(R1, 0x00000400)  returns 0x00 (0000ms, 0654ms total)
T3058 002:729 JLINK_WriteReg(R2, 0x20000180)  returns 0x00 (0000ms, 0654ms total)
T3058 002:729 JLINK_WriteReg(R3, 0x00000000)  returns 0x00 (0000ms, 0654ms total)
T3058 002:729 JLINK_WriteReg(R4, 0x00000000)  returns 0x00 (0000ms, 0654ms total)
T3058 002:729 JLINK_WriteReg(R5, 0x00000000)  returns 0x00 (0000ms, 0654ms total)
T3058 002:729 JLINK_WriteReg(R6, 0x00000000)  returns 0x00 (0000ms, 0654ms total)
T3058 002:729 JLINK_WriteReg(R7, 0x00000000)  returns 0x00 (0000ms, 0654ms total)
T3058 002:729 JLINK_WriteReg(R8, 0x00000000)  returns 0x00 (0000ms, 0654ms total)
T3058 002:729 JLINK_WriteReg(R9, 0x2000017C)  returns 0x00 (0000ms, 0654ms total)
T3058 002:729 JLINK_WriteReg(R10, 0x00000000)  returns 0x00 (0000ms, 0654ms total)
T3058 002:729 JLINK_WriteReg(R11, 0x00000000)  returns 0x00 (0000ms, 0654ms total)
T3058 002:729 JLINK_WriteReg(R12, 0x00000000)  returns 0x00 (0000ms, 0654ms total)
T3058 002:729 JLINK_WriteReg(R13 (SP), 0x20001000)  returns 0x00 (0000ms, 0654ms total)
T3058 002:729 JLINK_WriteReg(R14, 0x20000001)  returns 0x00 (0000ms, 0654ms total)
T3058 002:729 JLINK_WriteReg(R15 (PC), 0x20000108)  returns 0x00 (0000ms, 0654ms total)
T3058 002:729 JLINK_WriteReg(XPSR, 0x01000000)  returns 0x00 (0000ms, 0654ms total)
T3058 002:729 JLINK_WriteReg(MSP, 0x20001000)  returns 0x00 (0000ms, 0654ms total)
T3058 002:729 JLINK_WriteReg(PSP, 0x20001000)  returns 0x00 (0000ms, 0654ms total)
T3058 002:729 JLINK_WriteReg(CFBP, 0x00000000)  returns 0x00 (0000ms, 0654ms total)
T3058 002:729 JLINK_SetBPEx(Addr = 0x20000000, Type = 0xFFFFFFF2)  returns 0x0000000D (0000ms, 0654ms total)
T3058 002:729 JLINK_Go() (0001ms, 0655ms total)
T3058 002:730 JLINK_IsHalted()  returns FALSE (0001ms, 0656ms total)
T3058 002:737 JLINK_IsHalted() -- CPU_ReadMem(2 bytes @ 0x20000000)  returns TRUE (0003ms, 0658ms total)
T3058 002:740 JLINK_ReadReg(R15 (PC))  returns 0x20000000 (0000ms, 0655ms total)
T3058 002:740 JLINK_ClrBPEx(BPHandle = 0x0000000D)  returns 0x00 (0000ms, 0655ms total)
T3058 002:740 JLINK_ReadReg(R0)  returns 0x00000000 (0000ms, 0655ms total)
T3058 002:740 JLINK_WriteMem(0x20000180, 0x0400 Bytes, ...) - Data: 49 FD 4F F4 78 40 1C 49 08 80 FF F7 89 FD 01 20 ... -- CPU_WriteMem(1024 bytes @ 0x20000180)  returns 0x400 (0007ms, 0662ms total)
T3058 002:747 JLINK_WriteReg(R0, 0x08000800)  returns 0x00 (0000ms, 0662ms total)
T3058 002:747 JLINK_WriteReg(R1, 0x00000400)  returns 0x00 (0000ms, 0662ms total)
T3058 002:747 JLINK_WriteReg(R2, 0x20000180)  returns 0x00 (0000ms, 0662ms total)
T3058 002:747 JLINK_WriteReg(R3, 0x00000000)  returns 0x00 (0000ms, 0662ms total)
T3058 002:747 JLINK_WriteReg(R4, 0x00000000)  returns 0x00 (0000ms, 0662ms total)
T3058 002:747 JLINK_WriteReg(R5, 0x00000000)  returns 0x00 (0000ms, 0662ms total)
T3058 002:747 JLINK_WriteReg(R6, 0x00000000)  returns 0x00 (0000ms, 0662ms total)
T3058 002:747 JLINK_WriteReg(R7, 0x00000000)  returns 0x00 (0000ms, 0662ms total)
T3058 002:747 JLINK_WriteReg(R8, 0x00000000)  returns 0x00 (0000ms, 0662ms total)
T3058 002:747 JLINK_WriteReg(R9, 0x2000017C)  returns 0x00 (0000ms, 0662ms total)
T3058 002:747 JLINK_WriteReg(R10, 0x00000000)  returns 0x00 (0000ms, 0662ms total)
T3058 002:747 JLINK_WriteReg(R11, 0x00000000)  returns 0x00 (0000ms, 0662ms total)
T3058 002:747 JLINK_WriteReg(R12, 0x00000000)  returns 0x00 (0000ms, 0662ms total)
T3058 002:747 JLINK_WriteReg(R13 (SP), 0x20001000)  returns 0x00 (0000ms, 0662ms total)
T3058 002:747 JLINK_WriteReg(R14, 0x20000001)  returns 0x00 (0000ms, 0662ms total)
T3058 002:747 JLINK_WriteReg(R15 (PC), 0x20000108)  returns 0x00 (0000ms, 0662ms total)
T3058 002:747 JLINK_WriteReg(XPSR, 0x01000000)  returns 0x00 (0000ms, 0662ms total)
T3058 002:747 JLINK_WriteReg(MSP, 0x20001000)  returns 0x00 (0000ms, 0662ms total)
T3058 002:747 JLINK_WriteReg(PSP, 0x20001000)  returns 0x00 (0000ms, 0662ms total)
T3058 002:747 JLINK_WriteReg(CFBP, 0x00000000)  returns 0x00 (0000ms, 0662ms total)
T3058 002:747 JLINK_SetBPEx(Addr = 0x20000000, Type = 0xFFFFFFF2)  returns 0x0000000E (0000ms, 0662ms total)
T3058 002:747 JLINK_Go() (0001ms, 0663ms total)
T3058 002:748 JLINK_IsHalted()  returns FALSE (0001ms, 0664ms total)
T3058 002:752 JLINK_IsHalted()  returns FALSE (0000ms, 0663ms total)
T3058 002:754 JLINK_IsHalted() -- CPU_ReadMem(2 bytes @ 0x20000000)  returns TRUE (0002ms, 0665ms total)
T3058 002:756 JLINK_ReadReg(R15 (PC))  returns 0x20000000 (0000ms, 0663ms total)
T3058 002:756 JLINK_ClrBPEx(BPHandle = 0x0000000E)  returns 0x00 (0000ms, 0663ms total)
T3058 002:756 JLINK_ReadReg(R0)  returns 0x00000000 (0000ms, 0663ms total)
T3058 002:759 JLINK_WriteMem(0x20000180, 0x0400 Bytes, ...) - Data: 10 BD E6 48 00 89 E4 49 08 80 70 47 E2 49 89 1C ... -- CPU_WriteMem(1024 bytes @ 0x20000180)  returns 0x400 (0006ms, 0669ms total)
T3058 002:765 JLINK_WriteReg(R0, 0x08000C00)  returns 0x00 (0000ms, 0669ms total)
T3058 002:765 JLINK_WriteReg(R1, 0x00000400)  returns 0x00 (0000ms, 0669ms total)
T3058 002:765 JLINK_WriteReg(R2, 0x20000180)  returns 0x00 (0000ms, 0669ms total)
T3058 002:765 JLINK_WriteReg(R3, 0x00000000)  returns 0x00 (0000ms, 0669ms total)
T3058 002:765 JLINK_WriteReg(R4, 0x00000000)  returns 0x00 (0000ms, 0669ms total)
T3058 002:765 JLINK_WriteReg(R5, 0x00000000)  returns 0x00 (0000ms, 0669ms total)
T3058 002:765 JLINK_WriteReg(R6, 0x00000000)  returns 0x00 (0000ms, 0669ms total)
T3058 002:765 JLINK_WriteReg(R7, 0x00000000)  returns 0x00 (0000ms, 0669ms total)
T3058 002:765 JLINK_WriteReg(R8, 0x00000000)  returns 0x00 (0000ms, 0669ms total)
T3058 002:765 JLINK_WriteReg(R9, 0x2000017C)  returns 0x00 (0000ms, 0669ms total)
T3058 002:765 JLINK_WriteReg(R10, 0x00000000)  returns 0x00 (0000ms, 0669ms total)
T3058 002:765 JLINK_WriteReg(R11, 0x00000000)  returns 0x00 (0000ms, 0669ms total)
T3058 002:765 JLINK_WriteReg(R12, 0x00000000)  returns 0x00 (0000ms, 0669ms total)
T3058 002:765 JLINK_WriteReg(R13 (SP), 0x20001000)  returns 0x00 (0000ms, 0669ms total)
T3058 002:765 JLINK_WriteReg(R14, 0x20000001)  returns 0x00 (0000ms, 0669ms total)
T3058 002:765 JLINK_WriteReg(R15 (PC), 0x20000108)  returns 0x00 (0000ms, 0669ms total)
T3058 002:765 JLINK_WriteReg(XPSR, 0x01000000)  returns 0x00 (0000ms, 0669ms total)
T3058 002:765 JLINK_WriteReg(MSP, 0x20001000)  returns 0x00 (0000ms, 0669ms total)
T3058 002:765 JLINK_WriteReg(PSP, 0x20001000)  returns 0x00 (0000ms, 0669ms total)
T3058 002:765 JLINK_WriteReg(CFBP, 0x00000000)  returns 0x00 (0000ms, 0669ms total)
T3058 002:765 JLINK_SetBPEx(Addr = 0x20000000, Type = 0xFFFFFFF2)  returns 0x0000000F (0000ms, 0669ms total)
T3058 002:765 JLINK_Go() (0001ms, 0670ms total)
T3058 002:767 JLINK_IsHalted()  returns FALSE (0000ms, 0671ms total)
T3058 002:831 JLINK_IsHalted() -- CPU_ReadMem(2 bytes @ 0x20000000)  returns TRUE (0002ms, 0673ms total)
T3058 002:833 JLINK_ReadReg(R15 (PC))  returns 0x20000000 (0000ms, 0671ms total)
T3058 002:833 JLINK_ClrBPEx(BPHandle = 0x0000000F)  returns 0x00 (0000ms, 0671ms total)
T3058 002:833 JLINK_ReadReg(R0)  returns 0x00000000 (0000ms, 0671ms total)
T3058 002:834 JLINK_WriteMem(0x20000180, 0x0400 Bytes, ...) - Data: FF F7 ED FD 00 BD F0 B5 05 46 00 24 00 27 E5 48 ... -- CPU_WriteMem(1024 bytes @ 0x20000180)  returns 0x400 (0006ms, 0677ms total)
T3058 002:840 JLINK_WriteReg(R0, 0x08001000)  returns 0x00 (0000ms, 0677ms total)
T3058 002:840 JLINK_WriteReg(R1, 0x00000400)  returns 0x00 (0000ms, 0677ms total)
T3058 002:840 JLINK_WriteReg(R2, 0x20000180)  returns 0x00 (0000ms, 0677ms total)
T3058 002:840 JLINK_WriteReg(R3, 0x00000000)  returns 0x00 (0000ms, 0677ms total)
T3058 002:840 JLINK_WriteReg(R4, 0x00000000)  returns 0x00 (0000ms, 0677ms total)
T3058 002:840 JLINK_WriteReg(R5, 0x00000000)  returns 0x00 (0000ms, 0677ms total)
T3058 002:840 JLINK_WriteReg(R6, 0x00000000)  returns 0x00 (0000ms, 0677ms total)
T3058 002:840 JLINK_WriteReg(R7, 0x00000000)  returns 0x00 (0000ms, 0677ms total)
T3058 002:840 JLINK_WriteReg(R8, 0x00000000)  returns 0x00 (0000ms, 0677ms total)
T3058 002:840 JLINK_WriteReg(R9, 0x2000017C)  returns 0x00 (0000ms, 0677ms total)
T3058 002:840 JLINK_WriteReg(R10, 0x00000000)  returns 0x00 (0000ms, 0677ms total)
T3058 002:840 JLINK_WriteReg(R11, 0x00000000)  returns 0x00 (0000ms, 0677ms total)
T3058 002:840 JLINK_WriteReg(R12, 0x00000000)  returns 0x00 (0000ms, 0677ms total)
T3058 002:840 JLINK_WriteReg(R13 (SP), 0x20001000)  returns 0x00 (0000ms, 0677ms total)
T3058 002:840 JLINK_WriteReg(R14, 0x20000001)  returns 0x00 (0000ms, 0677ms total)
T3058 002:840 JLINK_WriteReg(R15 (PC), 0x20000108)  returns 0x00 (0000ms, 0677ms total)
T3058 002:840 JLINK_WriteReg(XPSR, 0x01000000)  returns 0x00 (0000ms, 0677ms total)
T3058 002:840 JLINK_WriteReg(MSP, 0x20001000)  returns 0x00 (0000ms, 0677ms total)
T3058 002:840 JLINK_WriteReg(PSP, 0x20001000)  returns 0x00 (0000ms, 0677ms total)
T3058 002:840 JLINK_WriteReg(CFBP, 0x00000000)  returns 0x00 (0000ms, 0677ms total)
T3058 002:840 JLINK_SetBPEx(Addr = 0x20000000, Type = 0xFFFFFFF2)  returns 0x00000010 (0000ms, 0677ms total)
T3058 002:840 JLINK_Go() (0002ms, 0679ms total)
T3058 002:842 JLINK_IsHalted()  returns FALSE (0000ms, 0679ms total)
T3058 002:845 JLINK_IsHalted()  returns FALSE (0000ms, 0679ms total)
T3058 002:847 JLINK_IsHalted() -- CPU_ReadMem(2 bytes @ 0x20000000)  returns TRUE (0002ms, 0681ms total)
T3058 002:849 JLINK_ReadReg(R15 (PC))  returns 0x20000000 (0000ms, 0679ms total)
T3058 002:849 JLINK_ClrBPEx(BPHandle = 0x00000010)  returns 0x00 (0000ms, 0679ms total)
T3058 002:849 JLINK_ReadReg(R0)  returns 0x00000000 (0000ms, 0679ms total)
T3058 002:849 JLINK_WriteMem(0x20000180, 0x0400 Bytes, ...) - Data: 28 12 FF F7 DA FB E8 B2 FF F7 D7 FB 36 E0 E7 48 ... -- CPU_WriteMem(1024 bytes @ 0x20000180)  returns 0x400 (0007ms, 0686ms total)
T3058 002:856 JLINK_WriteReg(R0, 0x08001400)  returns 0x00 (0000ms, 0686ms total)
T3058 002:856 JLINK_WriteReg(R1, 0x00000400)  returns 0x00 (0000ms, 0686ms total)
T3058 002:856 JLINK_WriteReg(R2, 0x20000180)  returns 0x00 (0000ms, 0686ms total)
T3058 002:856 JLINK_WriteReg(R3, 0x00000000)  returns 0x00 (0000ms, 0686ms total)
T3058 002:856 JLINK_WriteReg(R4, 0x00000000)  returns 0x00 (0000ms, 0686ms total)
T3058 002:856 JLINK_WriteReg(R5, 0x00000000)  returns 0x00 (0000ms, 0686ms total)
T3058 002:856 JLINK_WriteReg(R6, 0x00000000)  returns 0x00 (0000ms, 0686ms total)
T3058 002:856 JLINK_WriteReg(R7, 0x00000000)  returns 0x00 (0000ms, 0686ms total)
T3058 002:856 JLINK_WriteReg(R8, 0x00000000)  returns 0x00 (0000ms, 0686ms total)
T3058 002:856 JLINK_WriteReg(R9, 0x2000017C)  returns 0x00 (0000ms, 0686ms total)
T3058 002:856 JLINK_WriteReg(R10, 0x00000000)  returns 0x00 (0000ms, 0686ms total)
T3058 002:856 JLINK_WriteReg(R11, 0x00000000)  returns 0x00 (0000ms, 0686ms total)
T3058 002:856 JLINK_WriteReg(R12, 0x00000000)  returns 0x00 (0000ms, 0686ms total)
T3058 002:856 JLINK_WriteReg(R13 (SP), 0x20001000)  returns 0x00 (0000ms, 0686ms total)
T3058 002:856 JLINK_WriteReg(R14, 0x20000001)  returns 0x00 (0000ms, 0686ms total)
T3058 002:856 JLINK_WriteReg(R15 (PC), 0x20000108)  returns 0x00 (0000ms, 0686ms total)
T3058 002:856 JLINK_WriteReg(XPSR, 0x01000000)  returns 0x00 (0000ms, 0686ms total)
T3058 002:856 JLINK_WriteReg(MSP, 0x20001000)  returns 0x00 (0000ms, 0686ms total)
T3058 002:856 JLINK_WriteReg(PSP, 0x20001000)  returns 0x00 (0000ms, 0686ms total)
T3058 002:856 JLINK_WriteReg(CFBP, 0x00000000)  returns 0x00 (0000ms, 0686ms total)
T3058 002:856 JLINK_SetBPEx(Addr = 0x20000000, Type = 0xFFFFFFF2)  returns 0x00000011 (0000ms, 0686ms total)
T3058 002:856 JLINK_Go() (0002ms, 0688ms total)
T3058 002:858 JLINK_IsHalted()  returns FALSE (0000ms, 0688ms total)
T3058 002:864 JLINK_IsHalted() -- CPU_ReadMem(2 bytes @ 0x20000000)  returns TRUE (0003ms, 0691ms total)
T3058 002:867 JLINK_ReadReg(R15 (PC))  returns 0x20000000 (0000ms, 0688ms total)
T3058 002:867 JLINK_ClrBPEx(BPHandle = 0x00000011)  returns 0x00 (0000ms, 0688ms total)
T3058 002:867 JLINK_ReadReg(R0)  returns 0x00000000 (0000ms, 0688ms total)
T3058 002:868 JLINK_WriteMem(0x20000180, 0x0400 Bytes, ...) - Data: EE 49 49 89 C9 1C 88 B2 FF F7 CE F9 F0 B2 FF F7 ... -- CPU_WriteMem(1024 bytes @ 0x20000180)  returns 0x400 (0007ms, 0695ms total)
T3058 002:875 JLINK_WriteReg(R0, 0x08001800)  returns 0x00 (0000ms, 0695ms total)
T3058 002:875 JLINK_WriteReg(R1, 0x00000400)  returns 0x00 (0000ms, 0695ms total)
T3058 002:875 JLINK_WriteReg(R2, 0x20000180)  returns 0x00 (0000ms, 0695ms total)
T3058 002:875 JLINK_WriteReg(R3, 0x00000000)  returns 0x00 (0000ms, 0695ms total)
T3058 002:875 JLINK_WriteReg(R4, 0x00000000)  returns 0x00 (0000ms, 0695ms total)
